 time            v(c1_node)      v(c2_node)      v(c1_wl)        v(c1_bl)        v(c2_wl)        v(c2_bl)       
 5.00000000e-10  0.00000000e+00  0.00000000e+00  2.90011426e-04  0.00000000e+00  2.77921370e-04  1.66752822e-04 
 1.00000000e-09  0.00000000e+00  0.00000000e+00  5.80022853e-04  0.00000000e+00  5.55842741e-04  3.33505645e-04 
 2.00000000e-09  0.00000000e+00  0.00000000e+00  1.16004571e-03  0.00000000e+00  1.11168548e-03  6.67011289e-04 
 4.00000000e-09  0.00000000e+00  0.00000000e+00  2.32009141e-03  0.00000000e+00  2.22337096e-03  1.33402258e-03 
 8.00000000e-09  0.00000000e+00  0.00000000e+00  4.64018282e-03  0.00000000e+00  4.44674193e-03  2.66804516e-03 
 1.60000000e-08  0.00000000e+00  0.00000000e+00  9.28036565e-03  0.00000000e+00  8.89348386e-03  5.33609031e-03 
 3.20000000e-08  0.00000000e+00  0.00000000e+00  1.85607313e-02  0.00000000e+00  1.77869677e-02  1.06721806e-02 
 5.00000000e-08  0.00000000e+00  0.00000000e+00  2.90011426e-02  0.00000000e+00  2.77921370e-02  1.66752822e-02 
 5.32000000e-08  0.00000000e+00  0.00000000e+00  3.08572158e-02  0.00000000e+00  2.95708338e-02  1.77425003e-02 
 5.96000000e-08  0.00000000e+00  0.00000000e+00  3.45693620e-02  0.00000000e+00  3.31282274e-02  1.98769364e-02 
 7.24000000e-08  0.00000000e+00  0.00000000e+00  4.19936545e-02  0.00000000e+00  4.02430144e-02  2.41458087e-02 
 9.80000000e-08  0.00000000e+00  0.00000000e+00  5.68422396e-02  0.00000000e+00  5.44725886e-02  3.26835532e-02 
 1.48000000e-07  0.00000000e+00  0.00000000e+00  8.58433822e-02  0.00000000e+00  8.22647257e-02  4.93588354e-02 
 1.98000000e-07  0.00000000e+00  0.00000000e+00  1.14844525e-01  0.00000000e+00  1.10056863e-01  6.60341176e-02 
 2.48000000e-07  0.00000000e+00  0.00000000e+00  1.43845668e-01  0.00000000e+00  1.37849000e-01  8.27093999e-02 
 2.98000000e-07  0.00000000e+00  0.00000000e+00  1.72846810e-01  0.00000000e+00  1.65641137e-01  9.93846821e-02 
 3.48000000e-07  0.00000000e+00  0.00000000e+00  2.01847953e-01  0.00000000e+00  1.93433274e-01  1.16059964e-01 
 3.98000000e-07  0.00000000e+00  0.00000000e+00  2.30849095e-01  0.00000000e+00  2.21225411e-01  1.32735247e-01 
 4.48000000e-07  0.00000000e+00  0.00000000e+00  2.59850238e-01  0.00000000e+00  2.49017548e-01  1.49410529e-01 
 4.98000000e-07  0.00000000e+00  0.00000000e+00  2.88851381e-01  0.00000000e+00  2.76809685e-01  1.66085811e-01 
 5.48000000e-07  0.00000000e+00  0.00000000e+00  3.17852523e-01  0.00000000e+00  3.04601822e-01  1.82761093e-01 
 5.98000000e-07  0.00000000e+00  0.00000000e+00  3.46853666e-01  0.00000000e+00  3.32393959e-01  1.99436375e-01 
 6.48000000e-07  0.00000000e+00  0.00000000e+00  3.75854809e-01  0.00000000e+00  3.60186096e-01  2.16111658e-01 
 6.98000000e-07  0.00000000e+00  0.00000000e+00  4.04855951e-01  0.00000000e+00  3.87978233e-01  2.32786940e-01 
 7.48000000e-07  0.00000000e+00  0.00000000e+00  4.33857094e-01  0.00000000e+00  4.15770370e-01  2.49462222e-01 
 7.98000000e-07  0.00000000e+00  0.00000000e+00  4.62858237e-01  0.00000000e+00  4.43562507e-01  2.66137504e-01 
 8.48000000e-07  0.00000000e+00  0.00000000e+00  4.91859379e-01  0.00000000e+00  4.71354644e-01  2.82812787e-01 
 8.98000000e-07  0.00000000e+00  0.00000000e+00  5.20860522e-01  0.00000000e+00  4.99146781e-01  2.99488069e-01 
 9.48000000e-07  0.00000000e+00  0.00000000e+00  5.49861665e-01  0.00000000e+00  5.26938918e-01  3.16163351e-01 
 9.98000000e-07  0.00000000e+00  0.00000000e+00  5.78862807e-01  0.00000000e+00  5.54731055e-01  3.32838633e-01 
 1.04800000e-06  0.00000000e+00  0.00000000e+00  6.07863950e-01  0.00000000e+00  5.82523193e-01  3.49513916e-01 
 1.09800000e-06  0.00000000e+00  0.00000000e+00  6.36865092e-01  0.00000000e+00  6.10315330e-01  3.66189198e-01 
 1.14800000e-06  0.00000000e+00  0.00000000e+00  6.65866235e-01  0.00000000e+00  6.38107467e-01  3.82864480e-01 
 1.19800000e-06  0.00000000e+00  0.00000000e+00  6.94867378e-01  0.00000000e+00  6.65899604e-01  3.99539762e-01 
 1.24800000e-06  0.00000000e+00  0.00000000e+00  7.23868520e-01  0.00000000e+00  6.93691741e-01  4.16215044e-01 
 1.29800000e-06  7.67542722e-04  6.46610048e-03  7.52869663e-01  0.00000000e+00  7.21483878e-01  4.32890327e-01 
 1.34800000e-06  1.45674628e-03  2.66919780e-02  7.81870806e-01  0.00000000e+00  7.49276015e-01  4.49565609e-01 
 1.39800000e-06  1.12575960e-03  5.42664068e-02  8.10871948e-01  0.00000000e+00  7.77068152e-01  4.66240891e-01 
 1.44800000e-06  8.78704438e-04  8.19852458e-02  8.39873091e-01  0.00000000e+00  8.04860289e-01  4.82916173e-01 
 1.49800000e-06  7.51355291e-04  1.09700604e-01  8.68874234e-01  0.00000000e+00  8.32652426e-01  4.99591456e-01 
 1.54800000e-06  6.41110434e-04  1.37392745e-01  8.97875376e-01  0.00000000e+00  8.60444563e-01  5.16266738e-01 
 1.59800000e-06  5.75868246e-04  1.65093417e-01  9.26876519e-01  0.00000000e+00  8.88236700e-01  5.32942020e-01 
 1.64800000e-06  5.13107396e-04  1.92785121e-01  9.55877662e-01  0.00000000e+00  9.16028837e-01  5.49617302e-01 
 1.69800000e-06  4.73350859e-04  2.20482481e-01  9.84878804e-01  0.00000000e+00  9.43820974e-01  5.66292585e-01 
 1.74800000e-06  4.32810658e-04  2.48174916e-01  1.01387995e+00  0.00000000e+00  9.71613111e-01  5.82967867e-01 
 1.79800000e-06  4.06031094e-04  2.75871325e-01  1.04288109e+00  0.00000000e+00  9.99405248e-01  5.99643149e-01 
 1.84800000e-06  3.77678672e-04  3.03564674e-01  1.07188223e+00  0.00000000e+00  1.02719739e+00  6.16318431e-01 
 1.89800000e-06  3.58408904e-04  3.31260984e-01  1.10088337e+00  0.00000000e+00  1.05498952e+00  6.32993713e-01 
 1.94800000e-06  3.37463943e-04  3.58955251e-01  1.12988452e+00  0.00000000e+00  1.08278166e+00  6.49668996e-01 
 1.99800000e-06  3.22931599e-04  3.86651831e-01  1.15888566e+00  0.00000000e+00  1.11057380e+00  6.66344278e-01 
 2.04800000e-06  3.06825564e-04  4.14346984e-01  1.18788680e+00  0.00000000e+00  1.13836593e+00  6.83019560e-01 
 2.09800000e-06  2.95474034e-04  4.42044013e-01  1.21688795e+00  0.00000000e+00  1.16615807e+00  6.99694842e-01 
 2.14800000e-06  2.82703220e-04  4.69740015e-01  1.24588909e+00  0.00000000e+00  1.19395021e+00  7.16370125e-01 
 2.19800000e-06  2.73590800e-04  4.97437584e-01  1.27489023e+00  0.00000000e+00  1.22174234e+00  7.33045407e-01 
 2.24800000e-06  2.63216210e-04  5.25134403e-01  1.30389137e+00  0.00000000e+00  1.24953448e+00  7.49720689e-01 
 2.29800000e-06  2.55739660e-04  5.52832561e-01  1.33289252e+00  0.00000000e+00  1.27732662e+00  7.66395971e-01 
 2.34800000e-06  2.47144612e-04  5.80530166e-01  1.36189366e+00  0.00000000e+00  1.30511876e+00  7.83071253e-01 
 2.39800000e-06  2.40899587e-04  6.08228938e-01  1.39089480e+00  0.00000000e+00  1.33291089e+00  7.99746536e-01 
 2.44800000e-06  2.33662324e-04  6.35927302e-01  1.41989594e+00  0.00000000e+00  1.36070303e+00  8.16421818e-01 
 2.49800000e-06  2.28367627e-04  6.63626700e-01  1.44889709e+00  0.00000000e+00  1.38849517e+00  8.33097100e-01 
 2.54800000e-06  2.22189929e-04  6.91325799e-01  1.47789823e+00  0.00000000e+00  1.41628730e+00  8.49772382e-01 
 2.59800000e-06  2.17643932e-04  7.19025826e-01  1.50689937e+00  0.00000000e+00  1.44407944e+00  8.66447665e-01 
 2.64800000e-06  2.12308967e-04  7.46725639e-01  1.53590051e+00  0.00000000e+00  1.47187158e+00  8.83122947e-01 
 2.69800000e-06  2.08363326e-04  7.74426293e-01  1.56490166e+00  0.00000000e+00  1.49966372e+00  8.99798229e-01 
 2.74800000e-06  2.03709651e-04  8.02126800e-01  1.59390280e+00  0.00000000e+00  1.52745585e+00  9.16473511e-01 
 2.79800000e-06  2.00252788e-04  8.29828077e-01  1.62290394e+00  0.00000000e+00  1.55524799e+00  9.33148794e-01 
 2.84800000e-06  1.96157729e-04  8.57529260e-01  1.65190509e+00  0.00000000e+00  1.58304013e+00  9.49824076e-01 
 2.89800000e-06  1.93104107e-04  8.85231152e-01  1.68090623e+00  0.00000000e+00  1.61083226e+00  9.66499358e-01 
 2.94800000e-06  1.89472774e-04  9.12932994e-01  1.70990737e+00  0.00000000e+00  1.63862440e+00  9.83174640e-01 
 2.99800000e-06  1.86755719e-04  9.40635495e-01  1.73890851e+00  0.00000000e+00  1.66641654e+00  9.99849922e-01 
 3.04800000e-06  1.83513564e-04  9.68337979e-01  1.76790966e+00  0.00000000e+00  1.69420867e+00  1.01652520e+00 
 3.09800000e-06  1.81080332e-04  9.96041079e-01  1.79691080e+00  0.00000000e+00  1.72200081e+00  1.03320049e+00 
 3.14800000e-06  1.78167974e-04  1.02374419e+00  1.82591194e+00  0.00000000e+00  1.74979295e+00  1.04987577e+00 
 3.19800000e-06  1.66306918e-04  1.05010011e+00  1.85491308e+00  0.00000000e+00  1.77758509e+00  1.06655105e+00 
 3.24800000e-06  1.48493389e-04  1.07297515e+00  1.88391423e+00  0.00000000e+00  1.80537722e+00  1.08322633e+00 
 3.29800000e-06  1.39845177e-04  1.09275012e+00  1.91291537e+00  0.00000000e+00  1.83316936e+00  1.09990162e+00 
 3.34800000e-06  1.34647021e-04  1.11112134e+00  1.94191651e+00  0.00000000e+00  1.86096150e+00  1.11657690e+00 
 3.39800000e-06  1.31511283e-04  1.12883862e+00  1.97091765e+00  0.00000000e+00  1.88875363e+00  1.13325218e+00 
 3.44800000e-06  1.28731427e-04  1.14622014e+00  1.99991880e+00  0.00000000e+00  1.91654577e+00  1.14992746e+00 
 3.44814000e-06  1.28769895e-04  1.14626851e+00  2.00000000e+00  0.00000000e+00  1.91662359e+00  1.14997415e+00 
 3.44842000e-06  1.28802675e-04  1.14636523e+00  2.00000000e+00  0.00000000e+00  1.91677922e+00  1.15006753e+00 
 3.44898000e-06  1.28837274e-04  1.14655866e+00  2.00000000e+00  0.00000000e+00  1.91709050e+00  1.15025430e+00 
 3.45010000e-06  1.28845368e-04  1.14694539e+00  2.00000000e+00  0.00000000e+00  1.91771304e+00  1.15062782e+00 
 3.45234000e-06  1.28863725e-04  1.14771853e+00  2.00000000e+00  0.00000000e+00  1.91895813e+00  1.15137488e+00 
 3.45682000e-06  1.28904890e-04  1.14926356e+00  2.00000000e+00  0.00000000e+00  1.92144830e+00  1.15286898e+00 
 3.46578000e-06  1.28999649e-04  1.15234915e+00  2.00000000e+00  0.00000000e+00  1.92642865e+00  1.15585719e+00 
 3.48370000e-06  1.29216914e-04  1.15850473e+00  2.00000000e+00  0.00000000e+00  1.93638936e+00  1.16183361e+00 
 3.51954000e-06  1.29720008e-04  1.17076459e+00  2.00000000e+00  0.00000000e+00  1.95631076e+00  1.17378646e+00 
 3.56954000e-06  1.30535951e-04  1.18778142e+00  2.00000000e+00  0.00000000e+00  1.98410290e+00  1.19046174e+00 
 3.59814000e-06  1.31049496e-04  1.19748096e+00  2.00000000e+00  0.00000000e+00  2.00000000e+00  1.20000000e+00 
 3.60314000e-06  1.04190458e-04  1.19827614e+00  2.00000000e+00  0.00000000e+00  2.00000000e+00  1.20000000e+00 
 3.61314000e-06  7.58499901e-05  1.19903659e+00  2.00000000e+00  0.00000000e+00  2.00000000e+00  1.20000000e+00 
 3.63314000e-06  7.71409244e-05  1.19899427e+00  2.00000000e+00  0.00000000e+00  2.00000000e+00  1.20000000e+00 
 3.67314000e-06  7.67281368e-05  1.19901283e+00  2.00000000e+00  0.00000000e+00  2.00000000e+00  1.20000000e+00 
 3.72314000e-06  7.69052790e-05  1.19900073e+00  2.00000000e+00  0.00000000e+00  2.00000000e+00  1.20000000e+00 
 3.77314000e-06  7.68625333e-05  1.19900914e+00  2.00000000e+00  0.00000000e+00  2.00000000e+00  1.20000000e+00 
 3.82314000e-06  7.68142312e-05  1.19900331e+00  2.00000000e+00  0.00000000e+00  2.00000000e+00  1.20000000e+00 
 3.87314000e-06  7.69235115e-05  1.19900736e+00  2.00000000e+00  0.00000000e+00  2.00000000e+00  1.20000000e+00 
 3.92314000e-06  7.67738968e-05  1.19900454e+00  2.00000000e+00  0.00000000e+00  2.00000000e+00  1.20000000e+00 
 3.94814000e-06  7.69564362e-05  1.19900627e+00  2.00000000e+00  0.00000000e+00  2.00000000e+00  1.20000000e+00 
 3.94824000e-06  8.01595294e-05  1.19900768e+00  1.80000000e+00  0.00000000e+00  2.00000000e+00  1.20000000e+00 
 3.94844000e-06  9.28670111e-05  1.19901325e+00  1.40000000e+00  0.00000000e+00  2.00000000e+00  1.20000000e+00 
 3.94884000e-06  1.65848880e-04  1.19904438e+00  6.00000000e-01  0.00000000e+00  2.00000000e+00  1.20000000e+00 
 3.94914000e-06  2.46185408e-04  1.19907726e+00  0.00000000e+00  0.00000000e+00  2.00000000e+00  1.20000000e+00 
 3.94915000e-06  2.48841199e-04  1.19907831e+00  2.00000000e-01  0.00000000e+00  2.00000000e+00  1.20000000e+00 
 3.94917000e-06  2.54150142e-04  1.19908040e+00  6.00000000e-01  0.00000000e+00  2.00000000e+00  1.20000000e+00 
 3.94921000e-06  2.54949709e-04  1.19908011e+00  1.40000000e+00  0.00000000e+00  2.00000000e+00  1.20000000e+00 
 3.94924000e-06  2.42555661e-04  1.19907400e+00  2.00000000e+00  0.00000000e+00  2.00000000e+00  1.20000000e+00 
 3.94924800e-06  2.37888704e-04  1.19907176e+00  2.00000000e+00  0.00000000e+00  2.00000000e+00  1.20000000e+00 
 3.94926400e-06  2.28813885e-04  1.19906741e+00  2.00000000e+00  0.00000000e+00  2.00000000e+00  1.20000000e+00 
 3.94929600e-06  2.12151490e-04  1.19905943e+00  2.00000000e+00  0.00000000e+00  2.00000000e+00  1.20000000e+00 
 3.94936000e-06  1.84035162e-04  1.19904599e+00  2.00000000e+00  0.00000000e+00  2.00000000e+00  1.20000000e+00 
 3.94948800e-06  1.43721054e-04  1.19902680e+00  2.00000000e+00  0.00000000e+00  2.00000000e+00  1.20000000e+00 
 3.94974400e-06  1.01491420e-04  1.19900698e+00  2.00000000e+00  0.00000000e+00  2.00000000e+00  1.20000000e+00 
 3.95025600e-06  7.80758898e-05  1.19899677e+00  2.00000000e+00  0.00000000e+00  2.00000000e+00  1.20000000e+00 
 3.95128000e-06  7.68748969e-05  1.19899809e+00  2.00000000e+00  0.00000000e+00  2.00000000e+00  1.20000000e+00 
 3.95332800e-06  7.71865385e-05  1.19900101e+00  2.00000000e+00  0.00000000e+00  2.00000000e+00  1.20000000e+00 
 3.95742400e-06  7.68104132e-05  1.19900381e+00  2.00000000e+00  0.00000000e+00  2.00000000e+00  1.20000000e+00 
 3.96561600e-06  7.69614329e-05  1.19900564e+00  2.00000000e+00  0.00000000e+00  2.00000000e+00  1.20000000e+00 
 3.98200000e-06  7.67614139e-05  1.19900569e+00  2.00000000e+00  0.00000000e+00  2.00000000e+00  1.20000000e+00 
 4.01476800e-06  7.69483456e-05  1.19900573e+00  2.00000000e+00  0.00000000e+00  2.00000000e+00  1.20000000e+00 
 4.06476800e-06  7.67672029e-05  1.19900567e+00  2.00000000e+00  0.00000000e+00  2.00000000e+00  1.20000000e+00 
 4.09814000e-06  7.69430869e-05  1.19900574e+00  2.00000000e+00  0.00000000e+00  2.00000000e+00  1.20000000e+00 
 4.09824000e-06  4.93021921e-05  1.19892774e+00  2.00000000e+00  0.00000000e+00  1.80000000e+00  1.08000000e+00 
 4.09844000e-06  2.69941911e-05  1.19883036e+00  2.00000000e+00  0.00000000e+00  1.40000000e+00  8.40000000e-01 
 4.09884000e-06  3.94308426e-05  1.19874882e+00  2.00000000e+00  0.00000000e+00  6.00000000e-01  3.60000000e-01 
 4.09914000e-06  4.11595586e-05  1.19868421e+00  2.00000000e+00  0.00000000e+00  0.00000000e+00  0.00000000e+00 
 4.09915000e-06  4.11853396e-05  1.19868204e+00  2.00000000e+00  0.00000000e+00  2.00000000e-01  0.00000000e+00 
 4.09917000e-06  4.12351166e-05  1.19867771e+00  2.00000000e+00  0.00000000e+00  6.00000000e-01  0.00000000e+00 
 4.09921000e-06 -5.67415787e-03  1.18538020e+00  2.00000000e+00  0.00000000e+00  1.40000000e+00  0.00000000e+00 
 4.09924000e-06 -2.42544933e-02  1.14166567e+00  2.00000000e+00  0.00000000e+00  2.00000000e+00  0.00000000e+00 
 4.09924800e-06 -3.16324670e-02  1.12383213e+00  2.00000000e+00  0.00000000e+00  2.00000000e+00  0.00000000e+00 
 4.09926400e-06 -4.58997549e-02  1.08850670e+00  2.00000000e+00  0.00000000e+00  2.00000000e+00  0.00000000e+00 
 4.09929600e-06 -7.15849078e-02  1.01997809e+00  2.00000000e+00  0.00000000e+00  2.00000000e+00  0.00000000e+00 
 4.09936000e-06 -1.12449636e-01  8.91945260e-01  2.00000000e+00  0.00000000e+00  2.00000000e+00  0.00000000e+00 
 4.09948800e-06 -1.59670103e-01  6.73498170e-01  2.00000000e+00  0.00000000e+00  2.00000000e+00  0.00000000e+00 
 4.09974400e-06 -1.69558763e-01  3.72047694e-01  2.00000000e+00  0.00000000e+00  2.00000000e+00  0.00000000e+00 
 4.10004410e-06 -1.23055603e-01  1.84515518e-01  2.00000000e+00  0.00000000e+00  2.00000000e+00  0.00000000e+00 
 4.10039718e-06 -6.91330644e-02  8.29587881e-02  2.00000000e+00  0.00000000e+00  2.00000000e+00  0.00000000e+00 
 4.10078578e-06 -3.30517865e-02  3.56912230e-02  2.00000000e+00  0.00000000e+00  2.00000000e+00  0.00000000e+00 
 4.10129236e-06 -1.15460837e-02  1.17614603e-02  2.00000000e+00  0.00000000e+00  2.00000000e+00  0.00000000e+00 
 4.10199260e-06 -2.19327308e-03  2.20041159e-03  2.00000000e+00  0.00000000e+00  2.00000000e+00  0.00000000e+00 
 4.10292812e-06 -1.00993542e-04  1.00642535e-04  2.00000000e+00  0.00000000e+00  2.00000000e+00  0.00000000e+00 
 4.10434800e-06  1.63626590e-05 -1.61555288e-05  2.00000000e+00  0.00000000e+00  2.00000000e+00  0.00000000e+00 
 4.10680884e-06 -6.78638586e-06  6.60151316e-06  2.00000000e+00  0.00000000e+00  2.00000000e+00  0.00000000e+00 
 4.11173052e-06  4.44497781e-06 -4.32557428e-06  2.00000000e+00  0.00000000e+00  2.00000000e+00  0.00000000e+00 
 4.12157387e-06 -3.61451607e-06  3.50104117e-06  2.00000000e+00  0.00000000e+00  2.00000000e+00  0.00000000e+00 
 4.14126058e-06  3.25949258e-06 -3.15142019e-06  2.00000000e+00  0.00000000e+00  2.00000000e+00  0.00000000e+00 
 4.18063400e-06 -3.09605627e-06  2.98940088e-06  2.00000000e+00  0.00000000e+00  2.00000000e+00  0.00000000e+00 
 4.23063400e-06  2.97271328e-06 -2.86811871e-06  2.00000000e+00  0.00000000e+00  2.00000000e+00  0.00000000e+00 
 4.28063400e-06 -2.85464973e-06  2.75141275e-06  2.00000000e+00  0.00000000e+00  2.00000000e+00  0.00000000e+00 
 4.33063400e-06  2.74109334e-06 -2.63962135e-06  2.00000000e+00  0.00000000e+00  2.00000000e+00  0.00000000e+00 
 4.38063400e-06 -2.63226744e-06  2.53217067e-06  2.00000000e+00  0.00000000e+00  2.00000000e+00  0.00000000e+00 
 4.43063400e-06  2.52762543e-06 -2.42921712e-06  2.00000000e+00  0.00000000e+00  2.00000000e+00  0.00000000e+00 
 4.44924000e-06 -2.26675150e-06  2.17222449e-06  2.00000000e+00  0.00000000e+00  2.00000000e+00  0.00000000e+00 
 4.44934000e-06 -1.96473206e-06  1.79913723e-06  1.80000000e+00  0.00000000e+00  2.00000000e+00  0.00000000e+00 
 4.44954000e-06 -1.55104928e-06  1.15044813e-06  1.40000000e+00  0.00000000e+00  2.00000000e+00  0.00000000e+00 
 4.44994000e-06 -1.44122878e-06  3.49387557e-07  6.00000000e-01  0.00000000e+00  2.00000000e+00  0.00000000e+00 
 4.45024000e-06 -1.55202543e-06  1.05428012e-07  0.00000000e+00  0.00000000e+00  2.00000000e+00  0.00000000e+00 
 4.45032000e-06 -1.56266489e-06  8.19685602e-08  5.11477229e-05  3.06886338e-05  2.00000000e+00  0.00000000e+00 
 4.45048000e-06 -1.57920107e-06  4.54843419e-08  1.53443169e-04  9.20659013e-05  2.00000000e+00  0.00000000e+00 
 4.45080000e-06 -1.59417145e-06  1.23426738e-08  3.58034061e-04  2.14820436e-04  2.00000000e+00  0.00000000e+00 
 4.45144000e-06 -1.59999921e-06 -8.88784378e-10  7.67215844e-04  4.60329506e-04  2.00000000e+00  0.00000000e+00 
 4.45272000e-06 -1.59910008e-06  2.70349563e-10  1.58557941e-03  9.51347647e-04  2.00000000e+00  0.00000000e+00 
 4.45528000e-06 -1.59859915e-06 -2.65123883e-10  3.22230654e-03  1.93338393e-03  2.00000000e+00  0.00000000e+00 
 4.46040000e-06 -1.59694009e-06  1.12186055e-10  6.49576081e-03  3.89745649e-03  2.00000000e+00  0.00000000e+00 
 4.47064000e-06 -1.59411387e-06 -2.06340087e-10  1.30426693e-02  7.82560161e-03  2.00000000e+00  0.00000000e+00 
 4.49112000e-06 -1.58805508e-06  8.70803569e-11  2.61364864e-02  1.56818919e-02  2.00000000e+00  0.00000000e+00 
 4.53208000e-06 -1.57639788e-06 -1.93868709e-10  5.23241206e-02  3.13944723e-02  2.00000000e+00  0.00000000e+00 
 4.58208000e-06 -1.56200549e-06  8.10776747e-11  8.42914474e-02  5.05748684e-02  2.00000000e+00  0.00000000e+00 
 4.59924000e-06 -1.55725814e-06 -1.81561284e-10  9.52626340e-02  5.71575804e-02  2.00000000e+00  0.00000000e+00 
 4.59934000e-06 -1.55721798e-06 -1.55500421e-10  9.53265686e-02  5.71959412e-02  1.80000000e+00  0.00000000e+00 
 4.59954000e-06 -1.55714743e-06 -1.24863354e-10  9.54544379e-02  5.72726628e-02  1.40000000e+00  0.00000000e+00 
 4.59994000e-06 -1.55704770e-06 -1.54627692e-10  9.57101765e-02  5.74261059e-02  6.00000000e-01  0.00000000e+00 
 4.60024000e-06 -1.55698930e-06 -2.13000622e-10  9.59019805e-02  5.75411883e-02  0.00000000e+00  0.00000000e+00 
